EC-Lab ASCII FILE
Nb header lines : 76                          

Potentio Electrochemical Impedance Spectroscopy

Run on channel : 1 (SN 1055)
User : 
Electrode connection : standard
Ewe ctrl range : min = -2.00 V, max = 2.00 V
Ewe,I filtering : 50 kHz
Safety Limits :
	Do not start on E overload
Channel : Floating
Acquisition started on : 10/09/2019 14:28:38
Saved on :
	File : 20191009-1_190918-LK-5_1_09_PEIS_C01.mpr
	Directory : D:\Messdaten\2019\20191009-1_190918-LK-5_1\
	Host : 192.168.0.2
Device : SP-200 (SN 0231)
Address : 192.168.0.1
EC-Lab for windows v10.31 (software)
Internet server v10.31 (firmware)
Command interpretor v10.31 (firmware)
Electrode material : 
Initial state : 
Electrolyte : 
Comments : 
Cable : standard
Electrode surface area : 0.001 cm²
Characteristic mass : 0.001 g
Equivalent Weight : 0.000 g/eq.
Density : 0.000 g/cm3
Cycle Definition : Charge/Discharge alternance
Mode                Single sine         
E (V)               1.2000              
vs.                 Ref                 
tE (h:m:s)          0:00:0.0000         
record              0                   
dI                  0.000               
unit dI             mA                  
dt (s)              0.000               
fi                  7.000               
unit fi             MHz                 
ff                  100.000             
unit ff             mHz                 
Nd                  5                   
Points              per decade          
spacing             Logarithmic         
Va (mV)             10.0                
pw                  0.10                
Na                  2                   
corr                0                   
E range min (V)     -2.000              
E range max (V)     2.000               
I Range             Auto                
Bandwidth           7                   
nc cycles           0                   
goto Ns'            0                   
nr cycles           0                   
inc. cycle          0                   

Number of loops : 12
Loop 0 from point number 0 to 39
Loop 1 from point number 40 to 79
Loop 2 from point number 80 to 119
Loop 3 from point number 120 to 159
Loop 4 from point number 160 to 199
Loop 5 from point number 200 to 239
Loop 6 from point number 240 to 279
Loop 7 from point number 280 to 319
Loop 8 from point number 320 to 359
Loop 9 from point number 360 to 399
Loop 10 from point number 400 to 439
Loop 11 from point number 440 to 479

freq/Hz	Re(Z)/Ohm	-Im(Z)/Ohm	|Z|/Ohm	Phase(Z)/deg	time/s	<Ewe>/V	<I>/mA	Cs/µF	Cp/µF	cycle number	I Range	|Ewe|/V	|I|/A	Re(Y)/Ohm-1	Im(Y)/Ohm-1	|Y|/Ohm-1	Phase(Y)/deg	
7.0000235E+006	3.0153143E+001	-3.1736906E+001	4.3777199E+001	4.6465878E+001	9.503861239795631E+003	1.2012990E+000	4.8337564E-002	-7.1640080E-004	-3.7652109E-004	1.000000000000000E+000	39	1.5144568E-003	3.4594650E-005	1.5733909E-002	-1.6560318E-002	2.2842942E-002	-4.6465878E+001
4.4049555E+006	1.9150991E+001	-3.5860668E+001	4.0654003E+001	6.1896049E+001	9.505081234760291E+003	1.2013330E+000	4.7571570E-002	-1.0075351E-003	-7.8395358E-004	1.000000000000000E+000	39	2.0093923E-003	4.9426675E-005	1.1587364E-002	-2.1697601E-002	2.4597824E-002	-6.1896049E+001
2.7719478E+006	3.2297375E+001	-2.8972328E+001	4.3387974E+001	4.1893661E+001	9.507442230232467E+003	1.2013122E+000	1.0651436E-001	-1.9817627E-003	-8.8364887E-004	1.000000000000000E+000	38	4.7854795E-003	1.1029507E-004	1.7156491E-002	-1.5390214E-002	2.3047861E-002	-4.1893661E+001
1.7443358E+006	1.8204149E+001	-2.3940407E+001	3.0075474E+001	5.2750847E+001	9.508662233623734E+003	1.2013284E+000	1.0710036E-001	-3.8111715E-003	-2.4148859E-003	1.000000000000000E+000	38	6.0690106E-003	2.0179269E-004	2.0125443E-002	-2.6467113E-002	3.3249684E-002	-5.2750847E+001
1.0976683E+006	1.0444764E+001	-1.6729071E+001	1.9721939E+001	5.8021481E+001	9.509882245921704E+003	1.2013879E+000	1.0670286E-001	-8.6671673E-003	-6.2362226E-003	1.000000000000000E+000	38	3.4799641E-003	1.7645142E-004	2.6853409E-002	-4.3010309E-002	5.0704952E-002	-5.8021481E+001
6.9074700E+005	6.9242053E+000	-1.1079329E+001	1.3065073E+001	5.7996010E+001	9.511102237686224E+003	1.2053009E+000	1.0770316E-001	-2.0796375E-002	-1.4955154E-002	1.000000000000000E+000	38	2.8233009E-003	2.1609530E-004	4.0564515E-002	-6.4906731E-002	7.6539949E-002	-5.7996010E+001
4.3466794E+005	5.2257094E+000	-7.2010913E+000	8.8974018E+000	5.4032246E+001	9.512322230037593E+003	1.2061006E+000	1.0758372E-001	-5.0846867E-002	-3.3306915E-002	1.000000000000000E+000	38	2.5413244E-003	2.8562546E-004	6.6011384E-002	-9.0964496E-002	1.1239236E-001	-5.4032246E+001
2.7353513E+005	4.4825487E+000	-4.5227170E+000	6.3677478E+000	4.5255566E+001	9.513542245162127E+003	1.2064493E+000	1.0803723E-001	-1.2864935E-001	-6.4898513E-002	1.000000000000000E+000	38	2.6020606E-003	4.0863123E-004	1.1054862E-001	-1.1153924E-001	1.5704140E-001	-4.5255566E+001
1.7213133E+005	4.2373900E+000	-2.7694037E+000	5.0621214E+000	3.3167168E+001	9.514762227326806E+003	1.2066636E+000	1.0824999E-001	-3.3386734E-001	-9.9926665E-002	1.000000000000000E+000	38	3.1137434E-003	6.1510643E-004	1.6536109E-001	-1.0807399E-001	1.9754563E-001	-3.3167168E+001
1.0831298E+005	4.1239414E+000	-1.6267048E+000	4.4331775E+000	2.1526947E+001	9.515982238104742E+003	1.2067486E+000	1.0888452E-001	-9.0329760E-001	-1.2162369E-001	1.000000000000000E+000	38	4.2171716E-003	9.5127511E-004	2.0983709E-001	-8.2771055E-002	2.2557184E-001	-2.1526947E+001
6.8164055E+004	4.1088939E+000	-8.4402394E-001	4.1946855E+000	1.1607882E+001	9.517202230909315E+003	1.2068115E+000	1.0893493E-001	-2.7663682E+000	-1.1200069E-001	1.000000000000000E+000	38	6.2537063E-003	1.4908642E-003	2.3352110E-001	-4.7968481E-002	2.3839690E-001	-1.1607882E+001
4.2895500E+004	4.1170835E+000	-2.5312692E-001	4.1248574E+000	3.5182359E+000	9.517412234092655E+003	1.2068509E+000	1.0897227E-001	-1.4657843E+001	-5.5198699E-002	1.000000000000000E+000	38	9.6765924E-003	2.3459217E-003	2.4197571E-001	-1.4877174E-002	2.4243262E-001	-3.5182359E+000
2.6989742E+004	4.1664405E+000	2.5407019E-001	4.1741800E+000	-3.4895844E+000	9.517723233734083E+003	1.2050910E+000	1.0867742E-001	2.3209602E+001	8.5986994E-002	1.000000000000000E+000	38	1.0581788E-002	2.5350577E-003	2.3912382E-001	1.4581808E-002	2.3956801E-001	3.4895844E+000
1.6979977E+004	4.2474475E+000	7.7284473E-001	4.3171864E+000	-1.0312441E+001	9.518034242388851E+003	1.2036808E+000	1.0852438E-001	1.2128045E+001	3.8866347E-001	1.000000000000000E+000	38	1.0772551E-002	2.4952714E-003	2.2789061E-001	4.1465860E-002	2.3163235E-001	1.0312441E+001
1.0684743E+004	4.3925090E+000	1.4030024E+000	4.6111336E+000	-1.7713896E+001	9.518385068058851E+003	1.2027347E+000	1.0865875E-001	1.0616898E+001	9.8287678E-001	1.000000000000000E+000	38	1.0879121E-002	2.3593160E-003	2.0658429E-001	6.5984666E-002	2.1686642E-001	1.7713896E+001
6.8434551E+003	4.5973926E+000	2.1841087E+000	5.0898280E+000	-2.5411249E+001	9.518898978936602E+003	1.2021563E+000	1.0897974E-001	1.0648060E+001	1.9607073E+000	1.000000000000000E+000	38	1.0891071E-002	2.1397718E-003	1.7746200E-001	8.4307857E-002	1.9647029E-001	2.5411249E+001
4.2313560E+003	4.9438386E+000	3.3648484E+000	5.9802794E+000	-3.4239773E+001	9.519780340285201E+003	1.2017622E+000	1.0887428E-001	1.1178282E+001	3.5388577E+000	1.000000000000000E+000	38	1.0110149E-002	1.6905814E-003	1.3823605E-001	9.4085470E-002	1.6721627E-001	3.4239773E+001
2.6624424E+003	5.4735894E+000	4.9734464E+000	7.3956304E+000	-4.2259106E+001	9.520662597153743E+003	1.2015495E+000	1.0842544E-001	1.2019391E+001	5.4355931E+000	1.000000000000000E+000	38	1.0131483E-002	1.3699282E-003	1.0007413E-001	9.0929970E-002	1.3521498E-001	4.2259106E+001
1.6755387E+003	6.2878513E+000	7.2684460E+000	9.6107950E+000	-4.9137283E+001	9.521543339568947E+003	1.2014458E+000	1.0793740E-001	1.3068452E+001	7.4746113E+000	1.000000000000000E+000	38	1.0154964E-002	1.0566206E-003	6.8074375E-002	7.8690618E-002	1.0404967E-001	4.9137283E+001
1.0553374E+003	7.5758958E+000	1.0500587E+001	1.2948225E+001	-5.4190552E+001	9.522425323050818E+003	1.2013959E+000	1.0834610E-001	1.4362009E+001	9.4454346E+000	1.000000000000000E+000	38	1.0171195E-002	7.8552810E-004	4.5186996E-002	6.2631547E-002	7.7230662E-002	5.4190552E+001
6.6351367E+002	9.5777655E+000	1.4974593E+001	1.7775602E+001	-5.7396976E+001	9.523308829439397E+003	1.2013747E+000	1.0811748E-001	1.6018255E+001	1.1367805E+001	1.000000000000000E+000	38	1.0135072E-002	5.7016761E-004	3.0312065E-002	4.7392145E-002	5.6256883E-002	5.7396976E+001
4.1746198E+002	1.2520173E+001	2.0969740E+001	2.4423037E+001	-5.9160305E+001	9.523977591311210E+003	1.2013881E+000	1.0866149E-001	1.8180681E+001	1.3402843E+001	1.000000000000000E+000	38	9.8452838E-003	4.0311465E-004	2.0989930E-002	3.5155535E-002	4.0944949E-002	5.9160305E+001
2.6272980E+002	1.6591650E+001	2.8943666E+001	3.3361935E+001	-6.0176964E+001	9.524896105888125E+003	1.2013848E+000	4.8421774E-002	2.0929422E+001	1.5752950E+001	1.000000000000000E+000	39	1.0292617E-002	3.0851379E-004	1.4906894E-002	2.6004655E-002	2.9974282E-002	6.0176964E+001
1.6547664E+002	2.1386583E+001	3.9632694E+001	4.5034836E+001	-6.1647827E+001	9.525345823536161E+003	1.2013795E+000	4.8515860E-002	2.4267769E+001	1.8794895E+001	1.000000000000000E+000	39	9.1434997E-003	2.0303171E-004	1.0544943E-002	1.9541435E-002	2.2205032E-002	6.1647827E+001
1.0410025E+002	2.6737484E+001	5.4833534E+001	6.1004997E+001	-6.4005585E+001	9.526017110021377E+003	1.2013899E+000	4.8471052E-002	2.7881884E+001	2.2525984E+001	1.000000000000000E+000	39	9.8521281E-003	1.6149707E-004	7.1843877E-003	1.4733823E-002	1.6392101E-002	6.4005585E+001
6.5524200E+001	3.1684925E+001	7.8364159E+001	8.4527367E+001	-6.7985077E+001	9.526464794069296E+003	1.2013764E+000	4.8547875E-002	3.0995663E+001	2.6640429E+001	1.000000000000000E+000	39	9.5902560E-003	1.1345741E-004	4.4346359E-003	1.0967883E-002	1.1830488E-002	6.7985077E+001
4.1226891E+001	3.7271553E+001	1.1580604E+002	1.2165611E+002	-7.2159508E+001	9.526902418276804E+003	1.2013673E+000	4.8482440E-002	3.3335606E+001	3.0206676E+001	1.000000000000000E+000	39	9.4802761E-003	7.7926845E-005	2.5183125E-003	7.8246221E-003	8.2198912E-003	7.2159508E+001
2.5937929E+001	4.4600361E+001	1.7441980E+002	1.8003183E+002	-7.5656418E+001	9.527577153668797E+003	1.2013657E+000	4.2514294E-002	3.5179451E+001	3.3020378E+001	1.000000000000000E+000	40	9.5459064E-003	5.3023436E-005	1.3760679E-003	5.3814235E-003	5.5545731E-003	7.5656418E+001
1.6321390E+001	5.6019276E+001	2.6780630E+002	2.7360260E+002	-7.8185318E+001	9.527994191075268E+003	1.2013656E+000	4.2479854E-002	3.6411804E+001	3.4885372E+001	1.000000000000000E+000	40	9.4674882E-003	3.4603065E-005	7.4833678E-004	3.5775062E-003	3.6549361E-003	7.8185318E+001
1.0266080E+001	7.5933128E+001	4.1073108E+002	4.1769110E+002	-7.9525810E+001	9.528434221229516E+003	1.2013553E+000	4.2536847E-002	3.7744865E+001	3.6497456E+001	1.000000000000000E+000	40	9.4102779E-003	2.2529275E-005	4.3523210E-004	2.3542203E-003	2.3941137E-003	7.9525810E+001
6.4619474E+000	1.1290704E+002	6.3146674E+002	6.4148126E+002	-7.9862564E+001	9.528791100739792E+003	1.2013627E+000	4.2577460E-002	3.9003738E+001	3.7795425E+001	1.000000000000000E+000	40	9.3963640E-003	1.4647917E-005	2.7438049E-004	1.5345551E-003	1.5588920E-003	7.9862564E+001
4.0690074E+000	1.8422755E+002	9.6782349E+002	9.8520154E+002	-7.9222542E+001	9.529338179459097E+003	1.2013549E+000	4.2563889E-002	4.0414341E+001	3.9001171E+001	1.000000000000000E+000	40	9.3881302E-003	9.5291471E-006	1.8980364E-004	9.9711667E-004	1.0150208E-003	7.9222542E+001
2.5597956E+000	3.1530917E+002	1.4714434E+003	1.5048473E+003	-7.7905251E+001	9.530623155973502E+003	1.2013458E+000	4.1958489E-002	4.2254337E+001	4.0399273E+001	1.000000000000000E+000	41	9.3972748E-003	6.2446702E-006	1.3923603E-004	6.4976857E-004	6.6451926E-004	7.7905251E+001
1.6104950E+000	5.8139368E+002	2.2131924E+003	2.2882830E+003	-7.5281265E+001	9.531956542223517E+003	1.2013506E+000	4.2002134E-002	4.4652065E+001	4.1769615E+001	1.000000000000000E+000	41	9.3852868E-003	4.1014537E-006	1.1103268E-004	4.2266832E-004	4.3700889E-004	7.5281265E+001
1.0140835E+000	1.1070908E+003	3.2593699E+003	3.4422583E+003	-7.1239220E+001	9.534055955576536E+003	1.2013572E+000	4.2064957E-002	4.8151825E+001	4.3171104E+001	1.000000000000000E+000	41	9.3866829E-003	2.7268968E-006	9.3432158E-005	2.7507221E-004	2.9050696E-004	7.1239220E+001
6.3749474E-001	2.1475447E+003	4.6588213E+003	5.1299673E+003	-6.5252045E+001	9.537379688961140E+003	1.2013534E+000	4.2154763E-002	5.3587990E+001	4.4196758E+001	1.000000000000000E+000	41	9.3872277E-003	1.8298806E-006	8.1604288E-005	1.7703000E-004	1.9493302E-004	6.5252045E+001
4.0125847E-001	3.9618682E+003	6.2564106E+003	7.4053408E+003	-5.7655991E+001	9.542642754837754E+003	1.2013419E+000	4.2299505E-002	6.3397285E+001	4.5251301E+001	1.000000000000000E+000	41	9.3838722E-003	1.2671762E-006	7.2245348E-005	1.1408673E-004	1.3503767E-004	5.7655991E+001
2.5234148E-001	6.5401426E+003	7.4019473E+003	9.8773623E+003	-4.8537136E+001	9.550995181821112E+003	1.2013435E+000	4.2459644E-002	8.5209007E+001	4.7851498E+001	1.000000000000000E+000	41	9.3859658E-003	9.5025018E-007	6.7035558E-005	7.5868942E-005	1.0124160E-004	4.8537136E+001
1.5888140E-001	9.2761260E+003	8.1154092E+003	1.2325030E+004	-4.1181725E+001	9.564244409223786E+003	1.2013458E+000	4.2743318E-002	1.2343453E+002	5.3515739E+001	1.000000000000000E+000	41	9.3797846E-003	7.6103544E-007	6.1064755E-005	5.3423755E-005	8.1135702E-005	4.1181725E+001
1.0005757E-001	1.0699266E+004	8.7229727E+003	1.3804512E+004	-3.9189915E+001	9.585264479422185E+003	1.2013465E+000	4.3404516E-002	1.8234995E+002	7.2810257E+001	1.000000000000000E+000	41	9.3865087E-003	6.7995950E-007	5.6145102E-005	4.5774374E-005	7.2440082E-005	3.9189915E+001
7.0000235E+006	3.0500046E+001	-3.1940847E+001	4.4164131E+001	4.6321846E+001	1.678914014947135E+004	1.2013811E+000	6.5992482E-002	-7.1182661E-004	-3.7232970E-004	2.000000000000000E+000	39	1.5154746E-003	3.4314602E-005	1.5637277E-002	-1.6375972E-002	2.2642810E-002	-4.6321846E+001
4.4049555E+006	1.8891703E+001	-3.6937344E+001	4.1488117E+001	6.2912407E+001	1.679036015464924E+004	1.2013674E+000	6.5393195E-002	-9.7816682E-004	-7.7534822E-004	2.000000000000000E+000	39	2.0307298E-003	4.8947262E-005	1.0975483E-002	-2.1459432E-002	2.4103288E-002	-6.2912407E+001
2.7719478E+006	3.1704086E+001	-2.9077726E+001	4.3019337E+001	4.2525810E+001	1.679272115998808E+004	1.2013813E+000	1.2548482E-001	-1.9745796E-003	-9.0212788E-004	2.000000000000000E+000	38	4.7856779E-003	1.1124481E-004	1.7131202E-002	-1.5712056E-002	2.3245361E-002	-4.2525810E+001
1.7443358E+006	1.8015596E+001	-2.4021206E+001	3.0026321E+001	5.3130573E+001	1.679394116228598E+004	1.2013774E+000	1.2514515E-001	-3.7983521E-003	-2.4309754E-003	2.000000000000000E+000	38	6.0813930E-003	2.0253540E-004	1.9982249E-002	-2.6643455E-002	3.3304114E-002	-5.3130573E+001
1.0976683E+006	1.0187436E+001	-1.6783823E+001	1.9633659E+001	5.8743111E+001	1.679516116146394E+004	1.2014177E+000	1.2497160E-001	-8.6388942E-003	-6.3130236E-003	2.000000000000000E+000	38	3.4853234E-003	1.7751777E-004	2.6427884E-002	-4.3539997E-002	5.0932940E-002	-5.8743111E+001
6.9074700E+005	6.5904660E+000	-1.1168966E+001	1.2968425E+001	5.9456440E+001	1.679638114458858E+004	1.2053325E+000	1.2606522E-001	-2.0629473E-002	-1.5301699E-002	2.000000000000000E+000	38	2.8156706E-003	2.1711740E-004	3.9186969E-002	-6.6410765E-002	7.7110365E-002	-5.9456440E+001
4.3466794E+005	4.9248238E+000	-7.2405062E+000	8.7566442E+000	5.5777374E+001	1.679760114845983E+004	1.2061466E+000	1.2619400E-001	-5.0570071E-002	-3.4574509E-002	2.000000000000000E+000	38	2.5105379E-003	2.8670090E-004	6.4226650E-002	-9.4426416E-002	1.1419900E-001	-5.5777374E+001
2.7353513E+005	4.1743960E+000	-4.5427785E+000	6.1694746E+000	4.7419846E+001	1.679882116054452E+004	1.2065103E+000	1.2677068E-001	-1.2808122E-001	-6.9443598E-002	2.000000000000000E+000	38	2.5316416E-003	4.1034963E-004	1.0967238E-001	-1.1935075E-001	1.6208835E-001	-4.7419846E+001
1.7213133E+005	3.9296772E+000	-2.8012135E+000	4.8258843E+000	3.5482620E+001	1.680004214636248E+004	1.2066951E+000	1.2636571E-001	-3.3007604E-001	-1.1121225E-001	2.000000000000000E+000	38	2.9815405E-003	6.1782263E-004	1.6873418E-001	-1.2027971E-001	2.0721591E-001	-3.5482620E+001
1.0831298E+005	3.8273213E+000	-1.6423651E+000	4.1648231E+000	2.3224951E+001	1.680126216111379E+004	1.2067598E+000	1.2685654E-001	-8.9468455E-001	-1.3912855E-001	2.000000000000000E+000	38	3.9775982E-003	9.5504615E-004	2.2064891E-001	-9.4684005E-002	2.4010624E-001	-2.3224951E+001
6.8164055E+004	3.7963550E+000	-8.3952999E-001	3.8880744E+000	1.2469764E+001	1.680248216261168E+004	1.2068093E+000	1.2659715E-001	-2.7811761E+000	-1.2966770E-001	2.000000000000000E+000	38	5.8143456E-003	1.4954306E-003	2.5112948E-001	-5.5535041E-002	2.5719672E-001	-1.2469764E+001
4.2895500E+004	3.8132792E+000	-2.3417018E-001	3.8204625E+000	3.5140715E+000	1.680269315091509E+004	1.2068800E+000	1.2823200E-001	-1.5844437E+001	-5.9526194E-002	2.000000000000000E+000	38	8.9939497E-003	2.3541520E-003	2.6125625E-001	-1.6043521E-002	2.6174840E-001	-3.5140715E+000
2.6989742E+004	3.8574891E+000	2.8206235E-001	3.8677876E+000	-4.1820655E+000	1.680300416071655E+004	1.2053745E+000	1.2763479E-001	2.0906256E+001	1.1118375E-001	2.000000000000000E+000	38	1.0458241E-002	2.7039337E-003	2.5785732E-001	1.8854709E-002	2.5854573E-001	4.1820655E+000
1.6979977E+004	3.9475851E+000	8.1771797E-001	4.0313883E+000	-1.1702955E+001	1.680331516033132E+004	1.2038357E+000	1.2586187E-001	1.1462504E+001	4.7160384E-001	2.000000000000000E+000	38	1.0765165E-002	2.6703370E-003	2.4289706E-001	5.0314628E-002	2.4805351E-001	1.1702955E+001
1.0684743E+004	4.0957727E+000	1.4733747E+000	4.3527217E+000	-1.9785210E+001	1.680366599642794E+004	1.2028402E+000	1.2681927E-001	1.0109806E+001	1.1583705E+000	2.000000000000000E+000	38	1.0898304E-002	2.5037907E-003	2.1617927E-001	7.7766292E-002	2.2974132E-001	1.9785210E+001
6.8434551E+003	4.3132601E+000	2.2809722E+000	4.8792467E+000	-2.7871136E+001	1.680417889797234E+004	1.2022280E+000	1.2653928E-001	1.0195880E+001	2.2282257E+000	2.000000000000000E+000	38	1.0971136E-002	2.2485307E-003	1.8117575E-001	9.5810801E-002	2.0494966E-001	2.7871136E+001
4.2313560E+003	4.6790538E+000	3.5001445E+000	5.8433342E+000	-3.6798157E+001	1.680506023201425E+004	1.2018000E+000	1.2645158E-001	1.0746191E+001	3.8557162E+000	2.000000000000000E+000	38	1.0130054E-002	1.7336085E-003	1.3703659E-001	1.0250960E-001	1.7113517E-001	3.6798157E+001
2.6624424E+003	5.2144613E+000	5.1672316E+000	7.3410411E+000	-4.4739346E+001	1.680594148408275E+004	1.2015848E+000	1.2675858E-001	1.1568632E+001	5.7316875E+000	2.000000000000000E+000	38	1.0138861E-002	1.3811203E-003	9.6759610E-002	9.5883213E-002	1.3622046E-001	4.4739346E+001
1.6755387E+003	6.0203652E+000	7.5331182E+000	9.6432705E+000	-5.1368629E+001	1.680682324777800E+004	1.2014785E+000	1.2700491E-001	1.2609298E+001	7.6947012E+000	2.000000000000000E+000	38	1.0145262E-002	1.0520561E-003	6.4740218E-002	8.1007659E-002	1.0369926E-001	5.1368629E+001
1.0553374E+003	7.2456007E+000	1.0894842E+001	1.3084201E+001	-5.6374157E+001	1.680770525941988E+004	1.2014241E+000	1.2720832E-001	1.3842288E+001	9.5974388E+000	2.000000000000000E+000	38	1.0212249E-002	7.8050233E-004	4.2323347E-002	6.3639469E-002	7.6428056E-002	5.6374157E+001
6.6351367E+002	9.1000261E+000	1.5634548E+001	1.8090040E+001	-5.9798626E+001	1.680858776100841E+004	1.2013999E+000	1.2677628E-001	1.5342104E+001	1.1459786E+001	2.000000000000000E+000	38	1.0123027E-002	5.5959116E-004	2.7807603E-002	4.7775611E-002	5.5279035E-002	5.9798626E+001
4.1746198E+002	1.1848391E+001	2.2303329E+001	2.5255156E+001	-6.2021034E+001	1.680925653514685E+004	1.2014067E+000	1.2652339E-001	1.7093597E+001	1.3331309E+001	2.000000000000000E+000	38	9.8115662E-003	3.8849754E-004	1.8576302E-002	3.4967907E-002	3.9595876E-002	6.2021034E+001
