EC-Lab ASCII FILE
Nb header lines : 65                          

Potentio Electrochemical Impedance Spectroscopy

Run on channel : 1 (SN 1055)
User : 
Electrode connection : standard
Ewe ctrl range : min = -2.00 V, max = 2.00 V
Ewe,I filtering : 50 kHz
Safety Limits :
	Do not start on E overload
Channel : Floating
Acquisition started on : 10/09/2019 14:28:38
Saved on :
	File : 20191009-1_190918-LK-5_1_05_PEIS_C01.mpr
	Directory : D:\Messdaten\2019\20191009-1_190918-LK-5_1\
	Host : 192.168.0.2
Device : SP-200 (SN 0231)
Address : 192.168.0.1
EC-Lab for windows v10.31 (software)
Internet server v10.31 (firmware)
Command interpretor v10.31 (firmware)
Electrode material : 
Initial state : 
Electrolyte : 
Comments : 
Cable : standard
Electrode surface area : 0.001 cm²
Characteristic mass : 0.001 g
Equivalent Weight : 0.000 g/eq.
Density : 0.000 g/cm3
Cycle Definition : Charge/Discharge alternance
Mode                Single sine         
E (V)               1.2000              
vs.                 Ref                 
tE (h:m:s)          0:00:0.0000         
record              0                   
dI                  0.000               
unit dI             mA                  
dt (s)              0.000               
fi                  7.000               
unit fi             MHz                 
ff                  100.000             
unit ff             mHz                 
Nd                  5                   
Points              per decade          
spacing             Logarithmic         
Va (mV)             10.0                
pw                  0.10                
Na                  2                   
corr                0                   
E range min (V)     -2.000              
E range max (V)     2.000               
I Range             Auto                
Bandwidth           7                   
nc cycles           0                   
goto Ns'            0                   
nr cycles           0                   
inc. cycle          0                   

Number of loops : 1
Loop 0 from point number 0 to 39

freq/Hz	Re(Z)/Ohm	-Im(Z)/Ohm	|Z|/Ohm	Phase(Z)/deg	time/s	<Ewe>/V	<I>/mA	Cs/µF	Cp/µF	cycle number	I Range	|Ewe|/V	|I|/A	Re(Y)/Ohm-1	Im(Y)/Ohm-1	|Y|/Ohm-1	Phase(Y)/deg	
7.0000235E+006	4.9147480E+001	-1.7027477E+001	5.2013554E+001	1.9108990E+001	1.677269553376434E+003	1.2013141E+000	7.0134448E-003	-1.3352737E-003	-1.4309943E-004	1.000000000000000E+000	39	1.7067199E-003	3.2812983E-005	1.8166371E-002	-6.2938626E-003	1.9225758E-002	-1.9108990E+001
4.4049555E+006	5.1154560E+001	-1.9224316E+001	5.4647629E+001	2.0596643E+001	1.678489557434412E+003	1.2012639E+000	5.7028695E-003	-1.8794368E-003	-2.3258776E-004	1.000000000000000E+000	39	2.6830626E-003	4.9097511E-005	1.7129384E-002	-6.4373668E-003	1.8299056E-002	-2.0596643E+001
2.7719478E+006	4.9887646E+001	-1.3647577E+001	5.1720726E+001	1.5299852E+001	1.679709546238955E+003	1.2012522E+000	5.6634778E-003	-4.2070681E-003	-2.9292837E-004	1.000000000000000E+000	39	4.4519822E-003	8.6077336E-005	1.8649353E-002	-5.1018340E-003	1.9334609E-002	-1.5299852E+001
1.7443358E+006	4.6947479E+001	-1.1079800E+001	4.8237202E+001	1.3279061E+001	1.680929558803633E+003	1.2012411E+000	5.6616128E-003	-8.2348958E-003	-4.3446795E-004	1.000000000000000E+000	39	7.7349544E-003	1.6035247E-004	2.0176603E-002	-4.7617620E-003	2.0730887E-002	-1.3279061E+001
1.0976683E+006	4.3780033E+001	-9.9017220E+000	4.4885803E+001	1.2744164E+001	1.682149548034839E+003	1.2013173E+000	5.5393293E-003	-1.4643279E-002	-7.1259332E-004	1.000000000000000E+000	39	6.3157952E-003	1.4070809E-004	2.1729918E-002	-4.9146516E-003	2.2278760E-002	-1.2744164E+001
6.9074700E+005	4.1452305E+001	-1.0160848E+001	4.2679462E+001	1.3772862E+001	1.683369553239507E+003	1.2051553E+000	5.7198619E-003	-2.2676246E-002	-1.2852665E-003	1.000000000000000E+000	39	7.3284404E-003	1.7170883E-004	2.2756781E-002	-5.5781743E-003	2.3430474E-002	-1.3772862E+001
4.3466794E+005	3.9188522E+001	-1.1788224E+001	4.0923130E+001	1.6741711E+001	1.683579560449536E+003	1.2059392E+000	5.8386000E-003	-3.1060908E-002	-2.5773488E-003	1.000000000000000E+000	39	9.2662871E-003	2.2643153E-004	2.3400288E-002	-7.0389956E-003	2.4436058E-002	-1.6741711E+001
2.7353513E+005	3.5673599E+001	-1.4715545E+001	3.8589546E+001	2.2416401E+001	1.683890558250903E+003	1.2054263E+000	5.5540809E-003	-3.9539456E-002	-5.7496848E-003	1.000000000000000E+000	39	1.0255053E-002	2.6574690E-004	2.3955632E-002	-9.8818215E-003	2.5913754E-002	-2.2416401E+001
1.7213133E+005	3.0062689E+001	-1.7755032E+001	3.4914272E+001	3.0566111E+001	1.684201560452304E+003	1.2044784E+000	5.8186236E-003	-5.2076139E-002	-1.3467150E-002	1.000000000000000E+000	39	1.0390268E-002	2.9759371E-004	2.4661632E-002	-1.4565167E-002	2.8641582E-002	-3.0566111E+001
1.0831298E+005	2.1965191E+001	-1.9006100E+001	2.9046539E+001	4.0869068E+001	1.687337557828010E+003	1.2035518E+000	5.7937955E-003	-7.7311955E-002	-3.3101209E-002	1.000000000000000E+000	39	9.3830749E-003	3.2303590E-004	2.6034318E-002	-2.2527043E-002	3.4427509E-002	-4.0869068E+001
6.8164055E+004	2.6535702E+001	-3.5226055E+001	4.4102364E+001	5.3009377E+001	1.687981556045197E+003	1.2021000E+000	6.3178100E-002	-6.6282779E-002	-4.2286817E-002	1.000000000000000E+000	38	9.8446766E-003	2.2322334E-004	1.3642904E-002	-1.8110910E-002	2.2674521E-002	-5.3009377E+001
4.2895500E+004	1.4723026E+001	-2.6776093E+001	3.0556940E+001	6.1195488E+001	1.688191551468524E+003	1.2021066E+000	6.3366592E-002	-1.3856745E-001	-1.0639859E-001	1.000000000000000E+000	38	1.0718275E-002	3.5076402E-004	1.5768027E-002	-2.8676586E-002	3.2725789E-002	-6.1195488E+001
2.6989742E+004	8.6062574E+000	-1.8157850E+001	2.0094158E+001	6.4640503E+001	1.688502551723344E+003	1.2020402E+000	6.3379660E-002	-3.2475585E-001	-2.6518333E-001	1.000000000000000E+000	38	1.0115293E-002	5.0339469E-004	2.1314476E-002	-4.4970196E-002	4.9765706E-002	-6.4640503E+001
1.6979977E+004	5.8318572E+000	-1.1453469E+001	1.2852724E+001	6.3015797E+001	1.688712553999925E+003	1.2020419E+000	6.3512169E-002	-8.1836301E-001	-6.4987487E-001	1.000000000000000E+000	38	1.0256851E-002	7.9802936E-004	3.5303399E-002	-6.9334075E-002	7.7804521E-002	-6.3015797E+001
1.0684743E+004	4.7522635E+000	-6.6702447E+000	8.1900043E+000	5.4531757E+001	1.688950381584596E+003	1.2020390E+000	6.3060544E-002	-2.2331314E+000	-1.4812541E+000	1.000000000000000E+000	38	1.0376420E-002	1.2669615E-003	7.0848756E-002	-9.9442832E-002	1.2210006E-001	-5.4531757E+001
6.8434551E+003	4.3884721E+000	-3.3583233E+000	5.5260315E+000	3.7425392E+001	1.689298295707806E+003	1.2020527E+000	6.3187495E-002	-6.9250393E+000	-2.5576465E+000	1.000000000000000E+000	38	1.0938294E-002	1.9794123E-003	1.4370988E-001	-1.0997546E-001	1.8096168E-001	-3.7425392E+001
4.2313560E+003	4.4144001E+000	-5.8286375E-001	4.4527135E+000	7.5216494E+000	1.689964645232838E+003	1.2018616E+000	6.3025124E-002	-6.4531761E+001	-1.1057529E+000	1.000000000000000E+000	38	1.0392415E-002	2.3339509E-003	2.2264972E-001	-2.9397983E-002	2.2458215E-001	-7.5216494E+000
2.6624424E+003	4.6770196E+000	1.8056871E+000	5.0134835E+000	-2.1110401E+001	1.690845905114678E+003	1.2015873E+000	6.3238807E-002	3.3105293E+001	4.2944069E+000	1.000000000000000E+000	38	1.0111597E-002	2.0168805E-003	1.8607585E-001	7.1839504E-002	1.9946212E-001	2.1110401E+001
1.6755387E+003	5.2049146E+000	4.3382134E+000	6.7757826E+000	-3.9810669E+001	1.691726660116525E+003	1.2014186E+000	6.3636303E-002	2.1895494E+001	8.9754801E+000	1.000000000000000E+000	38	1.0156680E-002	1.4989678E-003	1.1336908E-001	9.4491333E-002	1.4758442E-001	3.9810669E+001
1.0553374E+003	6.1166639E+000	7.4003611E+000	9.6009855E+000	-5.0425045E+001	1.692608631918418E+003	1.2013376E+000	6.2902845E-002	2.0378672E+001	1.2107378E+001	1.000000000000000E+000	38	1.0180701E-002	1.0603808E-003	6.6356428E-002	8.0282569E-002	1.0415597E-001	5.0425045E+001
6.6351367E+002	7.6703677E+000	1.1379128E+001	1.3722940E+001	-5.6017136E+001	1.693491133293617E+003	1.2013056E+000	6.3466452E-002	2.1079548E+001	1.4493886E+001	1.000000000000000E+000	38	1.0203443E-002	7.4353180E-004	4.0730696E-002	6.0424715E-002	7.2870679E-002	5.6017136E+001
4.1746198E+002	1.0215660E+001	1.6513508E+001	1.9417921E+001	-5.8258049E+001	1.694159901805411E+003	1.2012951E+000	6.3124925E-002	2.3086807E+001	1.6696947E+001	1.000000000000000E+000	38	1.0155035E-002	5.2297232E-004	2.7093243E-002	4.3795943E-002	5.1498819E-002	5.8258049E+001
2.6272980E+002	1.4027895E+001	2.2945724E+001	2.6894016E+001	-5.8560425E+001	1.695079435422391E+003	1.2013026E+000	5.6579802E-003	2.6400311E+001	1.9217693E+001	1.000000000000000E+000	39	1.0361584E-002	3.8527470E-004	1.9394614E-002	3.1724181E-002	3.7182990E-002	5.8560425E+001
1.6547664E+002	1.8567408E+001	3.0592520E+001	3.5786182E+001	-5.8745331E+001	1.695743114600613E+003	1.2013139E+000	5.6321183E-003	3.1438963E+001	2.2975658E+001	1.000000000000000E+000	39	9.9115772E-003	2.7696660E-004	1.4498415E-002	2.3888260E-002	2.7943747E-002	5.8745331E+001
1.0410025E+002	2.2896292E+001	4.1161423E+001	4.7100986E+001	-6.0914734E+001	1.696197453075511E+003	1.2013111E+000	5.7769911E-003	3.7143085E+001	2.8366041E+001	1.000000000000000E+000	39	9.2845196E-003	1.9711943E-004	1.0320605E-002	1.8553693E-002	2.1230977E-002	6.0914734E+001
6.5524200E+001	2.6529520E+001	5.7861473E+001	6.3653481E+001	-6.5368515E+001	1.696858087080196E+003	1.2013104E+000	5.6928843E-003	4.1978695E+001	3.4686749E+001	1.000000000000000E+000	39	9.9021876E-003	1.5556396E-004	6.5476443E-003	1.4280558E-002	1.5710060E-002	6.5368515E+001
4.1226891E+001	3.0043299E+001	8.5108879E+001	9.0255867E+001	-7.0557053E+001	1.697295731661041E+003	1.2013080E+000	5.7472102E-003	4.5359123E+001	4.0333279E+001	1.000000000000000E+000	39	9.7460356E-003	1.0798230E-004	3.6880490E-003	1.0447780E-002	1.1079612E-002	7.0557053E+001
2.5937929E+001	3.4412395E+001	1.2869281E+002	1.3321431E+002	-7.5029388E+001	1.697732448535055E+003	1.2013158E+000	5.7401150E-003	4.7679375E+001	4.4497681E+001	1.000000000000000E+000	39	9.6640587E-003	7.2545197E-005	1.9391578E-003	7.2519123E-003	7.5067012E-003	7.5029388E+001
1.6321390E+001	4.1142265E+001	1.9819153E+002	2.0241682E+002	-7.8272621E+001	1.698378496459060E+003	1.2013079E+000	-2.1276866E-005	4.9201450E+001	4.7168804E+001	1.000000000000000E+000	40	9.7053824E-003	4.7947509E-005	1.0041418E-003	4.8371758E-003	4.9403007E-003	7.8272621E+001
1.0266080E+001	5.2589787E+001	3.0632437E+002	3.1080591E+002	-8.0258423E+001	1.698818513439983E+003	1.2013178E+000	-3.1802872E-006	5.0609718E+001	4.9160748E+001	1.000000000000000E+000	40	9.6524702E-003	3.1056265E-005	5.4440607E-004	3.1710495E-003	3.2174420E-003	8.0258423E+001
6.4619474E+000	7.3128677E+001	4.7253564E+002	4.7816080E+002	-8.1202805E+001	1.699175433830256E+003	1.2013242E+000	-1.0667281E-005	5.2122131E+001	5.0903000E+001	1.000000000000000E+000	40	9.6192742E-003	2.0117237E-005	3.1984528E-004	2.0667438E-003	2.0913468E-003	8.1202805E+001
4.0690074E+000	1.0916342E+002	7.2700513E+002	7.3515515E+002	-8.1460548E+001	1.699722511189597E+003	1.2013483E+000	-5.9821490E-005	5.3801472E+001	5.2615185E+001	1.000000000000000E+000	40	9.6230870E-003	1.3089872E-005	2.0198508E-004	1.3451771E-003	1.3602570E-003	8.1460548E+001
2.5597956E+000	1.7027594E+002	1.1143123E+003	1.1272469E+003	-8.1311951E+001	1.701007511703952E+003	1.2013133E+000	-5.9244642E-004	5.5796627E+001	5.4523487E+001	1.000000000000000E+000	41	9.6253343E-003	8.5387983E-006	1.3400314E-004	8.7693776E-004	8.8711706E-004	8.1311951E+001
1.6104950E+000	2.8004056E+002	1.7024117E+003	1.7252909E+003	-8.0658707E+001	1.702340823927327E+003	1.2013052E+000	-5.7560561E-004	5.8049187E+001	5.6519810E+001	1.000000000000000E+000	41	9.6153487E-003	5.5731753E-006	9.4079791E-005	5.7192612E-004	5.7961239E-004	8.0658707E+001
1.0140835E+000	4.7394772E+002	2.5771938E+003	2.6204111E+003	-7.9579697E+001	1.705470226955964E+003	1.2013121E+000	-6.1269797E-004	6.0897480E+001	5.8905334E+001	1.000000000000000E+000	42	9.6318936E-003	3.6757185E-006	6.9022630E-005	3.7532562E-004	3.8161949E-004	7.9579697E+001
6.3749474E-001	8.5340338E+002	3.8894368E+003	3.9819612E+003	-7.7624519E+001	1.708794027353826E+003	1.2013154E+000	-5.9714232E-004	6.4188446E+001	6.1240147E+001	1.000000000000000E+000	42	9.6199280E-003	2.4158769E-006	5.3822056E-005	2.4529724E-004	2.5113253E-004	7.7624519E+001
4.0125847E-001	1.5031271E+003	5.8082827E+003	5.9996284E+003	-7.5490730E+001	1.714057090963775E+003	1.2013119E+000	-5.2753504E-004	6.8288589E+001	6.4002205E+001	1.000000000000000E+000	42	9.6143745E-003	1.6024950E-006	4.1758689E-005	1.6136117E-004	1.6667698E-004	7.5490730E+001
2.5234148E-001	2.5343464E+003	8.5712373E+003	8.9380654E+003	-7.3528084E+001	1.722410330507220E+003	1.2013263E+000	-4.5962667E-004	7.3584778E+001	6.7668716E+001	1.000000000000000E+000	42	9.6158767E-003	1.0758342E-006	3.1723346E-005	1.0728931E-004	1.1188103E-004	7.3528084E+001
1.5888140E-001	4.3445083E+003	1.2359608E+004	1.3100941E+004	-7.0632988E+001	1.735657825643124E+003	1.2013307E+000	-4.5575979E-004	8.1048012E+001	7.2135124E+001	1.000000000000000E+000	42	9.6116718E-003	7.3366266E-007	2.5312533E-005	7.2011142E-005	7.6330391E-005	7.0632988E+001
1.0005757E-001	6.1483354E+003	1.8488604E+004	1.9484109E+004	-7.1605591E+001	1.756677845041515E+003	1.2013327E+000	-2.7470975E-004	8.6033195E+001	7.7466362E+001	1.000000000000000E+000	42	9.6132848E-003	4.9339104E-007	1.6195580E-005	4.8701575E-005	5.1323874E-005	7.1605591E+001